T7550 000:070.430   SEGGER J-Link V7.96i Log File
T7550 000:070.787   DLL Compiled: May 22 2024 16:10:08
T7550 000:070.880   Logging started @ 2025-04-07 08:34
T7550 000:070.966   Process: D:\Software\Keil5\UV4\UV4.exe
T7550 000:071.070 - 71.053ms
T7550 000:071.167 JLINK_SetWarnOutHandler(...)
T7550 000:071.258 - 0.095ms
T7550 000:071.358 JLINK_OpenEx(...)
T7550 000:074.954   Firmware: J-Link ARM-OB STM32 compiled Aug 22 2012 19:52:04
T7550 000:076.627   Firmware: J-Link ARM-OB STM32 compiled Aug 22 2012 19:52:04
T7550 000:079.577   Hardware: V7.00
T7550 000:079.687   S/N: 4294967295
T7550 000:079.804   OEM: SEGGER
T7550 000:079.885   Feature(s): RDI,FlashDL,FlashBP,JFlash,GDB
T7550 000:080.605   Bootloader: (Could not read)
T7550 000:082.103   TELNET listener socket opened on port 19021
T7550 000:082.344   WEBSRV WEBSRV_Init(): Starting webserver thread(s)
T7550 000:082.722   WEBSRV Webserver running on local port 19080
T7550 000:083.055   Looking for J-Link GUI Server exe at: D:\Software\Keil5\ARM\Segger\JLinkGUIServer.exe
T7550 000:083.191   Looking for J-Link GUI Server exe at: D:\Environment\JLink_V796i\JLinkGUIServer.exe
T7550 000:083.268   Forking J-Link GUI Server: D:\Environment\JLink_V796i\JLinkGUIServer.exe
T7550 000:087.757   J-Link GUI Server info: "J-Link GUI server V7.96i "
T7550 000:088.344 - 16.965ms returns "O.K."
T7550 000:088.443 JLINK_GetEmuCaps()
T7550 000:088.516 - 0.069ms returns 0x88EA5833
T7550 000:088.586 JLINK_TIF_GetAvailable(...)
T7550 000:089.160 - 0.573ms
T7550 000:089.242 JLINK_SetErrorOutHandler(...)
T7550 000:089.298 - 0.055ms
T7550 000:089.399 JLINK_ExecCommand("ProjectFile = "C:\Users\25150\Desktop\clock_weather_f4\mdk\JLinkSettings.ini"", ...). 
T7550 000:109.134   Ref file found at: D:\Software\Keil5\ARM\Segger\JLinkDevices.ref
T7550 000:109.351   REF file references invalid XML file: D:\Environment\JLink_V796i\JLinkDevices.xml
T7550 000:111.404 - 22.010ms returns 0x00
T7550 000:113.935 JLINK_ExecCommand("Device = STM32F407VETx", ...). 
T7550 000:116.686   Device "STM32F407VE" selected.
T7550 000:117.416 - 3.419ms returns 0x00
T7550 000:117.476 JLINK_ExecCommand("DisableConnectionTimeout", ...). 
T7550 000:117.526 - 0.002ms returns 0x01
T7550 000:117.573 JLINK_GetHardwareVersion()
T7550 000:117.617 - 0.043ms returns 70000
T7550 000:117.667 JLINK_GetDLLVersion()
T7550 000:117.711 - 0.048ms returns 79609
T7550 000:117.758 JLINK_GetOEMString(...)
T7550 000:117.805 JLINK_GetFirmwareString(...)
T7550 000:117.848 - 0.043ms
T7550 000:133.226 JLINK_GetDLLVersion()
T7550 000:133.288 - 0.062ms returns 79609
T7550 000:133.333 JLINK_GetCompileDateTime()
T7550 000:133.376 - 0.042ms
T7550 000:139.167 JLINK_GetFirmwareString(...)
T7550 000:139.242 - 0.075ms
T7550 000:143.915 JLINK_GetHardwareVersion()
T7550 000:143.989 - 0.074ms returns 70000
T7550 000:148.635 JLINK_GetSN()
T7550 000:148.708 - 0.073ms returns -1
T7550 000:148.755 JLINK_GetOEMString(...)
T7550 000:158.417 JLINK_TIF_Select(JLINKARM_TIF_SWD)
T7550 000:159.715 - 1.298ms returns 0x00
T7550 000:159.773 JLINK_HasError()
T7550 000:159.826 JLINK_SetSpeed(5000)
T7550 000:160.199 - 0.373ms
T7550 000:160.255 JLINK_GetId()
T7550 000:165.785   InitTarget() start
T7550 000:165.894    J-Link Script File: Executing InitTarget()
T7550 000:173.593   SWD selected. Executing JTAG -> SWD switching sequence.
T7550 000:191.046   DAP initialized successfully.
T7550 000:232.907   InitTarget() end - Took 56.8ms
T7550 000:240.685   Found SW-DP with ID 0x2BA01477
T7550 000:250.438   Old FW that does not support reading DPIDR via DAP jobs
T7550 000:269.096   DPv0 detected
T7550 000:279.070   CoreSight SoC-400 or earlier
T7550 000:290.456   Scanning AP map to find all available APs
T7550 000:305.672   AP[1]: Stopped AP scan as end of AP map has been reached
T7550 000:313.177   AP[0]: AHB-AP (IDR: 0x24770011)
T7550 000:318.530   Iterating through AP map to find AHB-AP to use
T7550 000:336.570   AP[0]: Core found
T7550 000:342.671   AP[0]: AHB-AP ROM base: 0xE00FF000
T7550 000:354.690   CPUID register: 0x410FC241. Implementer code: 0x41 (ARM)
T7550 000:363.308   Found Cortex-M4 r0p1, Little endian.
T7550 000:364.521   -- Max. mem block: 0x00002C18
T7550 000:365.594   CPU_ReadMem(4 bytes @ 0xE000EDF0)
T7550 000:366.435   CPU_ReadMem(4 bytes @ 0xE0002000)
T7550 000:373.715   FPUnit: 6 code (BP) slots and 2 literal slots
T7550 000:373.861   CPU_ReadMem(4 bytes @ 0xE000EDFC)
T7550 000:374.761   CPU_WriteMem(4 bytes @ 0xE000EDFC)
T7550 000:375.597   CPU_ReadMem(4 bytes @ 0xE0001000)
T7550 000:376.470   CPU_WriteMem(4 bytes @ 0xE0001000)
T7550 000:377.428   CPU_ReadMem(4 bytes @ 0xE000ED88)
T7550 000:378.307   CPU_WriteMem(4 bytes @ 0xE000ED88)
T7550 000:379.199   CPU_ReadMem(4 bytes @ 0xE000ED88)
T7550 000:380.014   CPU_WriteMem(4 bytes @ 0xE000ED88)
T7550 000:387.216   CoreSight components:
T7550 000:395.924   ROMTbl[0] @ E00FF000
T7550 000:396.027   CPU_ReadMem(64 bytes @ 0xE00FF000)
T7550 000:397.487   CPU_ReadMem(32 bytes @ 0xE000EFE0)
T7550 000:405.065   [0][0]: E000E000 CID B105E00D PID 000BB00C SCS-M7
T7550 000:405.166   CPU_ReadMem(32 bytes @ 0xE0001FE0)
T7550 000:413.790   [0][1]: E0001000 CID B105E00D PID 003BB002 DWT
T7550 000:413.892   CPU_ReadMem(32 bytes @ 0xE0002FE0)
T7550 000:422.185   [0][2]: E0002000 CID B105E00D PID 002BB003 FPB
T7550 000:422.288   CPU_ReadMem(32 bytes @ 0xE0000FE0)
T7550 000:431.178   [0][3]: E0000000 CID B105E00D PID 003BB001 ITM
T7550 000:431.281   CPU_ReadMem(32 bytes @ 0xE0040FE0)
T7550 000:441.264   [0][4]: E0040000 CID B105900D PID 000BB9A1 TPIU
T7550 000:441.366   CPU_ReadMem(32 bytes @ 0xE0041FE0)
T7550 000:447.387   [0][5]: E0041000 CID B105900D PID 000BB925 ETM
T7550 000:448.727 - 288.471ms returns 0x2BA01477
T7550 000:448.793 JLINK_GetDLLVersion()
T7550 000:448.848 - 0.055ms returns 79609
T7550 000:448.897 JLINK_CORE_GetFound()
T7550 000:448.952 - 0.054ms returns 0xE0000FF
T7550 000:449.001 JLINK_GetDebugInfo(0x100 = JLINKARM_ROM_TABLE_ADDR_INDEX)
T7550 000:449.052   Value=0xE00FF000
T7550 000:449.120 - 0.119ms returns 0
T7550 000:457.248 JLINK_GetDebugInfo(0x100 = JLINKARM_ROM_TABLE_ADDR_INDEX)
T7550 000:457.342   Value=0xE00FF000
T7550 000:457.411 - 0.163ms returns 0
T7550 000:457.460 JLINK_GetDebugInfo(0x101 = JLINKARM_DEBUG_INFO_ETM_ADDR_INDEX)
T7550 000:457.505   Value=0xE0041000
T7550 000:457.572 - 0.112ms returns 0
T7550 000:457.620 JLINK_ReadMemEx(0xE0041FD0, 0x20 Bytes, Flags = 0x02000004)
T7550 000:457.700   CPU_ReadMem(32 bytes @ 0xE0041FD0)
T7550 000:458.819   Data:  04 00 00 00 00 00 00 00 00 00 00 00 00 00 00 00 ...
T7550 000:458.911 - 1.291ms returns 32 (0x20)
T7550 000:458.965 JLINK_GetDebugInfo(0x102 = JLINKARM_DEBUG_INFO_MTB_ADDR_INDEX)
T7550 000:459.013   Value=0x00000000
T7550 000:459.084 - 0.119ms returns 0
T7550 000:459.133 JLINK_GetDebugInfo(0x103 = JLINKARM_DEBUG_INFO_TPIU_ADDR_INDEX)
T7550 000:459.193   Value=0xE0040000
T7550 000:459.256 - 0.123ms returns 0
T7550 000:459.300 JLINK_GetDebugInfo(0x104 = JLINKARM_DEBUG_INFO_ITM_ADDR_INDEX)
T7550 000:459.343   Value=0xE0000000
T7550 000:459.406 - 0.106ms returns 0
T7550 000:459.450 JLINK_GetDebugInfo(0x105 = JLINKARM_DEBUG_INFO_DWT_ADDR_INDEX)
T7550 000:459.493   Value=0xE0001000
T7550 000:459.556 - 0.106ms returns 0
T7550 000:459.600 JLINK_GetDebugInfo(0x106 = JLINKARM_DEBUG_INFO_FPB_ADDR_INDEX)
T7550 000:459.643   Value=0xE0002000
T7550 000:459.706 - 0.106ms returns 0
T7550 000:459.750 JLINK_GetDebugInfo(0x107 = JLINKARM_DEBUG_INFO_NVIC_ADDR_INDEX)
T7550 000:459.792   Value=0xE000E000
T7550 000:459.856 - 0.105ms returns 0
T7550 000:459.900 JLINK_GetDebugInfo(0x10C = JLINKARM_DEBUG_INFO_DBG_ADDR_INDEX)
T7550 000:459.942   Value=0xE000EDF0
T7550 000:460.006 - 0.106ms returns 0
T7550 000:460.050 JLINK_GetDebugInfo(0x01 = Unknown)
T7550 000:460.092   Value=0x00000001
T7550 000:460.156 - 0.106ms returns 0
T7550 000:460.200 JLINK_ReadMemU32(0xE000ED00, 0x1 Items)
T7550 000:460.248   CPU_ReadMem(4 bytes @ 0xE000ED00)
T7550 000:461.091   Data:  41 C2 0F 41
T7550 000:461.166   Debug reg: CPUID
T7550 000:461.233 - 1.033ms returns 1 (0x1)
T7550 000:461.285 JLINK_GetDebugInfo(0x10F = JLINKARM_DEBUG_INFO_HAS_CORTEX_M_SECURITY_EXT_INDEX)
T7550 000:461.333   Value=0x00000000
T7550 000:461.400 - 0.115ms returns 0
T7550 000:461.448 JLINK_HasError()
T7550 000:461.495 JLINK_SetResetType(JLINKARM_CM3_RESET_TYPE_NORMAL)
T7550 000:461.541 - 0.045ms returns JLINKARM_CM3_RESET_TYPE_NORMAL
T7550 000:461.587 JLINK_Reset()
T7550 000:461.643   CPU is running
T7550 000:461.709   CPU_WriteMem(4 bytes @ 0xE000EDF0)
T7550 000:462.572   CPU is running
T7550 000:462.647   CPU_WriteMem(4 bytes @ 0xE000EDFC)
T7550 000:473.872   Reset: Halt core after reset via DEMCR.VC_CORERESET.
T7550 000:483.748   Reset: Reset device via AIRCR.SYSRESETREQ.
T7550 000:483.844   CPU is running
T7550 000:483.914   CPU_WriteMem(4 bytes @ 0xE000ED0C)
T7550 000:540.119   CPU_ReadMem(4 bytes @ 0xE000EDF0)
T7550 000:541.353   CPU_ReadMem(4 bytes @ 0xE000EDF0)
T7550 000:546.643   CPU_WriteMem(4 bytes @ 0xE000EDFC)
T7550 000:553.870   CPU_ReadMem(4 bytes @ 0xE000EDF0)
T7550 000:559.531   CPU_WriteMem(4 bytes @ 0xE0002000)
T7550 000:560.856   CPU_ReadMem(4 bytes @ 0xE000EDFC)
T7550 000:561.965   CPU_ReadMem(4 bytes @ 0xE0001000)
T7550 000:563.199 - 101.610ms
T7550 000:563.371 JLINK_Halt()
T7550 000:563.497 - 0.125ms returns 0x00
T7550 000:563.629 JLINK_ReadMemU32(0xE000EDF0, 0x1 Items)
T7550 000:563.766   CPU_ReadMem(4 bytes @ 0xE000EDF0)
T7550 000:564.974   Data:  03 00 03 00
T7550 000:565.189   Debug reg: DHCSR
T7550 000:565.376 - 1.747ms returns 1 (0x1)
T7550 000:565.528 JLINK_WriteU32_64(0xE000EDF0, 0xA05F0003)
T7550 000:565.654   Debug reg: DHCSR
T7550 000:566.999   CPU_WriteMem(4 bytes @ 0xE000EDF0)
T7550 000:568.168 - 2.649ms returns 0 (0x00000000)
T7550 000:568.300 JLINK_WriteU32_64(0xE000EDFC, 0x01000000)
T7550 000:568.401   Debug reg: DEMCR
T7550 000:568.556   CPU_WriteMem(4 bytes @ 0xE000EDFC)
T7550 000:569.600 - 1.298ms returns 0 (0x00000000)
T7550 000:594.192 JLINK_GetHWStatus(...)
T7550 000:594.883 - 0.691ms returns 0
T7550 000:612.751 JLINK_GetNumBPUnits(Type = 0xFFFFFF00)
T7550 000:612.826 - 0.074ms returns 0x06
T7550 000:612.871 JLINK_GetNumBPUnits(Type = 0xF0)
T7550 000:612.915 - 0.043ms returns 0x2000
T7550 000:612.959 JLINK_GetNumWPUnits()
T7550 000:613.002 - 0.042ms returns 4
T7550 000:630.697 JLINK_GetSpeed()
T7550 000:630.783 - 0.085ms returns 4000
T7550 000:642.915 JLINK_ReadMemU32(0xE000E004, 0x1 Items)
T7550 000:642.984   CPU_ReadMem(4 bytes @ 0xE000E004)
T7550 000:643.830   Data:  02 00 00 00
T7550 000:643.905 - 0.990ms returns 1 (0x1)
T7550 000:643.955 JLINK_ReadMemU32(0xE000E004, 0x1 Items)
T7550 000:644.003   CPU_ReadMem(4 bytes @ 0xE000E004)
T7550 000:644.758   Data:  02 00 00 00
T7550 000:644.865 - 0.909ms returns 1 (0x1)
T7550 000:644.928 JLINK_WriteMemEx(0xE0001000, 0x0000001C Bytes, Flags = 0x02000004)
T7550 000:644.984   Data:  01 00 00 00 00 00 00 00 00 00 00 00 00 00 00 00 ...
T7550 000:645.069   CPU_WriteMem(28 bytes @ 0xE0001000)
T7550 000:646.214 - 1.285ms returns 0x1C
T7550 000:646.280 JLINK_Halt()
T7550 000:646.325 - 0.045ms returns 0x00
T7550 000:646.371 JLINK_IsHalted()
T7550 000:646.415 - 0.044ms returns TRUE
T7550 000:651.433 JLINK_WriteMem(0x20000000, 0x184 Bytes, ...)
T7550 000:651.490   Data:  00 BE 0A E0 0D 78 2D 06 68 40 08 24 40 00 00 D3 ...
T7550 000:651.802   CPU_WriteMem(388 bytes @ 0x20000000)
T7550 000:657.157 - 5.723ms returns 0x184
T7550 000:657.318 JLINK_HasError()
T7550 000:657.419 JLINK_WriteReg(R0, 0x08000000)
T7550 000:657.484 - 0.083ms returns 0
T7550 000:657.542 JLINK_WriteReg(R1, 0x00B71B00)
T7550 000:657.596 - 0.054ms returns 0
T7550 000:657.657 JLINK_WriteReg(R2, 0x00000001)
T7550 000:657.716 - 0.058ms returns 0
T7550 000:657.772 JLINK_WriteReg(R3, 0x00000000)
T7550 000:657.826 - 0.054ms returns 0
T7550 000:657.882 JLINK_WriteReg(R4, 0x00000000)
T7550 000:657.938 - 0.055ms returns 0
T7550 000:657.994 JLINK_WriteReg(R5, 0x00000000)
T7550 000:658.049 - 0.055ms returns 0
T7550 000:658.108 JLINK_WriteReg(R6, 0x00000000)
T7550 000:658.154 - 0.046ms returns 0
T7550 000:658.203 JLINK_WriteReg(R7, 0x00000000)
T7550 000:658.249 - 0.046ms returns 0
T7550 000:658.294 JLINK_WriteReg(R8, 0x00000000)
T7550 000:658.337 - 0.043ms returns 0
T7550 000:658.382 JLINK_WriteReg(R9, 0x20000180)
T7550 000:658.425 - 0.043ms returns 0
T7550 000:658.470 JLINK_WriteReg(R10, 0x00000000)
T7550 000:658.514 - 0.044ms returns 0
T7550 000:658.559 JLINK_WriteReg(R11, 0x00000000)
T7550 000:658.602 - 0.043ms returns 0
T7550 000:658.647 JLINK_WriteReg(R12, 0x00000000)
T7550 000:658.691 - 0.043ms returns 0
T7550 000:658.736 JLINK_WriteReg(R13 (SP), 0x20001000)
T7550 000:658.780 - 0.044ms returns 0
T7550 000:658.825 JLINK_WriteReg(R14, 0x20000001)
T7550 000:658.868 - 0.043ms returns 0
T7550 000:658.925 JLINK_WriteReg(R15 (PC), 0x20000054)
T7550 000:658.970 - 0.057ms returns 0
T7550 000:659.016 JLINK_WriteReg(XPSR, 0x01000000)
T7550 000:659.059 - 0.043ms returns 0
T7550 000:659.104 JLINK_WriteReg(MSP, 0x20001000)
T7550 000:659.148 - 0.043ms returns 0
T7550 000:659.193 JLINK_WriteReg(PSP, 0x20001000)
T7550 000:659.240 - 0.046ms returns 0
T7550 000:659.291 JLINK_WriteReg(CFBP, 0x00000000)
T7550 000:659.335 - 0.044ms returns 0
T7550 000:659.381 JLINK_SetBPEx(Addr = 0x20000000, Type = 0xFFFFFFF2)
T7550 000:659.435   CPU_ReadMem(2 bytes @ 0x20000000)
T7550 000:660.254 - 0.871ms returns 0x00000001
T7550 000:660.333 JLINK_Go()
T7550 000:660.384   CPU_WriteMem(2 bytes @ 0x20000000)
T7550 000:661.270   CPU_ReadMem(4 bytes @ 0xE0001000)
T7550 000:662.186   CPU_WriteMem(4 bytes @ 0xE0002008)
T7550 000:662.260   CPU_WriteMem(4 bytes @ 0xE000200C)
T7550 000:662.326   CPU_WriteMem(4 bytes @ 0xE0002010)
T7550 000:662.392   CPU_WriteMem(4 bytes @ 0xE0002014)
T7550 000:662.457   CPU_WriteMem(4 bytes @ 0xE0002018)
T7550 000:662.522   CPU_WriteMem(4 bytes @ 0xE000201C)
T7550 000:665.275   CPU_WriteMem(4 bytes @ 0xE0001004)
T7550 000:676.359   Memory map 'after startup completion point' is active
T7550 000:676.455 - 16.121ms
T7550 000:676.508 JLINK_IsHalted()
T7550 000:680.397   CPU_ReadMem(2 bytes @ 0x20000000)
T7550 000:681.301 - 4.793ms returns TRUE
T7550 000:681.364 JLINK_ReadReg(R15 (PC))
T7550 000:681.412 - 0.047ms returns 0x20000000
T7550 000:681.460 JLINK_ClrBPEx(BPHandle = 0x00000001)
T7550 000:681.505 - 0.045ms returns 0x00
T7550 000:681.552 JLINK_ReadReg(R0)
T7550 000:681.597 - 0.044ms returns 0x00000000
T7550 000:682.091 JLINK_HasError()
T7550 000:682.146 JLINK_WriteReg(R0, 0x08000000)
T7550 000:682.193 - 0.046ms returns 0
T7550 000:682.240 JLINK_WriteReg(R1, 0x00004000)
T7550 000:682.285 - 0.045ms returns 0
T7550 000:682.331 JLINK_WriteReg(R2, 0x000000FF)
T7550 000:682.376 - 0.044ms returns 0
T7550 000:682.422 JLINK_WriteReg(R3, 0x00000000)
T7550 000:682.466 - 0.044ms returns 0
T7550 000:682.512 JLINK_WriteReg(R4, 0x00000000)
T7550 000:682.557 - 0.044ms returns 0
T7550 000:682.603 JLINK_WriteReg(R5, 0x00000000)
T7550 000:682.647 - 0.044ms returns 0
T7550 000:682.693 JLINK_WriteReg(R6, 0x00000000)
T7550 000:682.738 - 0.044ms returns 0
T7550 000:682.784 JLINK_WriteReg(R7, 0x00000000)
T7550 000:682.828 - 0.044ms returns 0
T7550 000:682.874 JLINK_WriteReg(R8, 0x00000000)
T7550 000:682.919 - 0.044ms returns 0
T7550 000:682.965 JLINK_WriteReg(R9, 0x20000180)
T7550 000:683.009 - 0.044ms returns 0
T7550 000:683.055 JLINK_WriteReg(R10, 0x00000000)
T7550 000:683.100 - 0.044ms returns 0
T7550 000:683.146 JLINK_WriteReg(R11, 0x00000000)
T7550 000:683.190 - 0.044ms returns 0
T7550 000:683.236 JLINK_WriteReg(R12, 0x00000000)
T7550 000:683.281 - 0.044ms returns 0
T7550 000:683.327 JLINK_WriteReg(R13 (SP), 0x20001000)
T7550 000:683.372 - 0.045ms returns 0
T7550 000:683.418 JLINK_WriteReg(R14, 0x20000001)
T7550 000:683.462 - 0.044ms returns 0
T7550 000:683.508 JLINK_WriteReg(R15 (PC), 0x20000020)
T7550 000:683.553 - 0.044ms returns 0
T7550 000:683.599 JLINK_WriteReg(XPSR, 0x01000000)
T7550 000:683.644 - 0.044ms returns 0
T7550 000:683.690 JLINK_WriteReg(MSP, 0x20001000)
T7550 000:683.734 - 0.044ms returns 0
T7550 000:683.780 JLINK_WriteReg(PSP, 0x20001000)
T7550 000:683.883 - 0.102ms returns 0
T7550 000:683.933 JLINK_WriteReg(CFBP, 0x00000000)
T7550 000:683.976 - 0.043ms returns 0
T7550 000:684.021 JLINK_SetBPEx(Addr = 0x20000000, Type = 0xFFFFFFF2)
T7550 000:684.065 - 0.044ms returns 0x00000002
T7550 000:684.109 JLINK_Go()
T7550 000:684.159   CPU_ReadMem(4 bytes @ 0xE0001000)
T7550 000:688.853 - 4.742ms
T7550 000:688.927 JLINK_IsHalted()
T7550 000:692.870   CPU_ReadMem(2 bytes @ 0x20000000)
T7550 000:693.806 - 4.878ms returns TRUE
T7550 000:693.868 JLINK_ReadReg(R15 (PC))
T7550 000:693.917 - 0.048ms returns 0x20000000
T7550 000:693.963 JLINK_ClrBPEx(BPHandle = 0x00000002)
T7550 000:694.007 - 0.044ms returns 0x00
T7550 000:694.053 JLINK_ReadReg(R0)
T7550 000:694.097 - 0.044ms returns 0x00000001
T7550 000:694.143 JLINK_HasError()
T7550 000:694.190 JLINK_WriteReg(R0, 0x08000000)
T7550 000:694.234 - 0.044ms returns 0
T7550 000:694.280 JLINK_WriteReg(R1, 0x00004000)
T7550 000:694.324 - 0.043ms returns 0
T7550 000:694.369 JLINK_WriteReg(R2, 0x000000FF)
T7550 000:694.413 - 0.043ms returns 0
T7550 000:694.458 JLINK_WriteReg(R3, 0x00000000)
T7550 000:694.502 - 0.043ms returns 0
T7550 000:694.547 JLINK_WriteReg(R4, 0x00000000)
T7550 000:694.591 - 0.043ms returns 0
T7550 000:694.636 JLINK_WriteReg(R5, 0x00000000)
T7550 000:694.680 - 0.043ms returns 0
T7550 000:694.725 JLINK_WriteReg(R6, 0x00000000)
T7550 000:694.769 - 0.043ms returns 0
T7550 000:694.814 JLINK_WriteReg(R7, 0x00000000)
T7550 000:694.858 - 0.044ms returns 0
T7550 000:694.903 JLINK_WriteReg(R8, 0x00000000)
T7550 000:694.947 - 0.043ms returns 0
T7550 000:694.992 JLINK_WriteReg(R9, 0x20000180)
T7550 000:695.036 - 0.043ms returns 0
T7550 000:695.081 JLINK_WriteReg(R10, 0x00000000)
T7550 000:695.125 - 0.043ms returns 0
T7550 000:695.170 JLINK_WriteReg(R11, 0x00000000)
T7550 000:695.213 - 0.043ms returns 0
T7550 000:695.258 JLINK_WriteReg(R12, 0x00000000)
T7550 000:695.302 - 0.043ms returns 0
T7550 000:695.347 JLINK_WriteReg(R13 (SP), 0x20001000)
T7550 000:695.391 - 0.044ms returns 0
T7550 000:695.436 JLINK_WriteReg(R14, 0x20000001)
T7550 000:695.480 - 0.043ms returns 0
T7550 000:695.525 JLINK_WriteReg(R15 (PC), 0x200000C0)
T7550 000:695.569 - 0.043ms returns 0
T7550 000:695.614 JLINK_WriteReg(XPSR, 0x01000000)
T7550 000:695.658 - 0.044ms returns 0
T7550 000:695.703 JLINK_WriteReg(MSP, 0x20001000)
T7550 000:695.747 - 0.043ms returns 0
T7550 000:695.792 JLINK_WriteReg(PSP, 0x20001000)
T7550 000:695.836 - 0.043ms returns 0
T7550 000:695.881 JLINK_WriteReg(CFBP, 0x00000000)
T7550 000:695.925 - 0.044ms returns 0
T7550 000:695.971 JLINK_SetBPEx(Addr = 0x20000000, Type = 0xFFFFFFF2)
T7550 000:696.015 - 0.044ms returns 0x00000003
T7550 000:696.060 JLINK_Go()
T7550 000:696.112   CPU_ReadMem(4 bytes @ 0xE0001000)
T7550 000:701.023 - 4.960ms
T7550 000:701.255 JLINK_IsHalted()
T7550 000:702.300 - 1.044ms returns FALSE
T7550 000:702.522 JLINK_HasError()
T7550 000:744.798 JLINK_IsHalted()
T7550 000:745.716 - 0.918ms returns FALSE
T7550 000:745.772 JLINK_HasError()
T7550 000:747.821 JLINK_IsHalted()
T7550 000:748.869 - 1.049ms returns FALSE
T7550 000:748.924 JLINK_HasError()
T7550 000:750.111 JLINK_IsHalted()
T7550 000:750.943 - 0.831ms returns FALSE
T7550 000:751.001 JLINK_HasError()
T7550 000:752.889 JLINK_IsHalted()
T7550 000:753.842 - 0.950ms returns FALSE
T7550 000:753.930 JLINK_HasError()
T7550 000:755.766 JLINK_IsHalted()
T7550 000:756.602 - 0.835ms returns FALSE
T7550 000:756.657 JLINK_HasError()
T7550 000:758.131 JLINK_IsHalted()
T7550 000:759.216 - 1.084ms returns FALSE
T7550 000:759.273 JLINK_HasError()
T7550 000:761.250 JLINK_IsHalted()
T7550 000:762.415 - 1.165ms returns FALSE
T7550 000:762.468 JLINK_HasError()
T7550 000:764.309 JLINK_IsHalted()
T7550 000:765.552 - 1.242ms returns FALSE
T7550 000:765.792 JLINK_HasError()
T7550 000:767.198 JLINK_IsHalted()
T7550 000:768.360 - 1.161ms returns FALSE
T7550 000:768.600 JLINK_HasError()
T7550 000:770.189 JLINK_IsHalted()
T7550 000:771.506 - 1.316ms returns FALSE
T7550 000:771.746 JLINK_HasError()
T7550 000:773.266 JLINK_IsHalted()
T7550 000:774.473 - 1.205ms returns FALSE
T7550 000:774.712 JLINK_HasError()
T7550 000:776.198 JLINK_IsHalted()
T7550 000:777.524 - 1.325ms returns FALSE
T7550 000:777.763 JLINK_HasError()
T7550 000:779.220 JLINK_IsHalted()
T7550 000:780.314 - 1.091ms returns FALSE
T7550 000:780.534 JLINK_HasError()
T7550 000:788.538 JLINK_IsHalted()
T7550 000:789.756 - 1.217ms returns FALSE
T7550 000:789.938 JLINK_HasError()
T7550 000:791.485 JLINK_IsHalted()
T7550 000:792.616 - 1.130ms returns FALSE
T7550 000:792.780 JLINK_HasError()
T7550 000:794.490 JLINK_IsHalted()
T7550 000:795.549 - 1.058ms returns FALSE
T7550 000:795.723 JLINK_HasError()
T7550 000:797.483 JLINK_IsHalted()
T7550 000:798.416 - 0.932ms returns FALSE
T7550 000:798.545 JLINK_HasError()
T7550 000:800.467 JLINK_IsHalted()
T7550 000:801.352 - 0.884ms returns FALSE
T7550 000:801.460 JLINK_HasError()
T7550 000:803.494 JLINK_IsHalted()
T7550 000:804.517 - 1.023ms returns FALSE
T7550 000:804.602 JLINK_HasError()
T7550 000:806.479 JLINK_IsHalted()
T7550 000:807.471 - 0.991ms returns FALSE
T7550 000:807.554 JLINK_HasError()
T7550 000:809.678 JLINK_IsHalted()
T7550 000:810.582 - 0.904ms returns FALSE
T7550 000:810.665 JLINK_HasError()
T7550 000:812.712 JLINK_IsHalted()
T7550 000:813.616 - 0.904ms returns FALSE
T7550 000:813.703 JLINK_HasError()
T7550 000:815.712 JLINK_IsHalted()
T7550 000:816.567 - 0.854ms returns FALSE
T7550 000:816.658 JLINK_HasError()
T7550 000:818.658 JLINK_IsHalted()
T7550 000:819.468 - 0.809ms returns FALSE
T7550 000:819.542 JLINK_HasError()
T7550 000:820.801 JLINK_IsHalted()
T7550 000:821.708 - 0.906ms returns FALSE
T7550 000:821.779 JLINK_HasError()
T7550 000:823.751 JLINK_IsHalted()
T7550 000:824.753 - 1.002ms returns FALSE
T7550 000:824.824 JLINK_HasError()
T7550 000:826.458 JLINK_IsHalted()
T7550 000:827.500 - 1.042ms returns FALSE
T7550 000:827.576 JLINK_HasError()
T7550 000:829.329 JLINK_IsHalted()
T7550 000:830.150 - 0.819ms returns FALSE
T7550 000:830.222 JLINK_HasError()
T7550 000:832.292 JLINK_IsHalted()
T7550 000:833.094 - 0.800ms returns FALSE
T7550 000:833.169 JLINK_HasError()
T7550 000:835.001 JLINK_IsHalted()
T7550 000:836.024 - 1.023ms returns FALSE
T7550 000:836.098 JLINK_HasError()
T7550 000:837.993 JLINK_IsHalted()
T7550 000:838.926 - 0.934ms returns FALSE
T7550 000:838.998 JLINK_HasError()
T7550 000:840.902 JLINK_IsHalted()
T7550 000:841.873 - 0.969ms returns FALSE
T7550 000:841.957 JLINK_HasError()
T7550 000:843.963 JLINK_IsHalted()
T7550 000:844.850 - 0.885ms returns FALSE
T7550 000:844.924 JLINK_HasError()
T7550 000:846.929 JLINK_IsHalted()
T7550 000:847.754 - 0.824ms returns FALSE
T7550 000:847.828 JLINK_HasError()
T7550 000:849.911 JLINK_IsHalted()
T7550 000:850.824 - 0.912ms returns FALSE
T7550 000:850.896 JLINK_HasError()
T7550 000:852.897 JLINK_IsHalted()
T7550 000:853.735 - 0.838ms returns FALSE
T7550 000:853.810 JLINK_HasError()
T7550 000:855.089 JLINK_IsHalted()
T7550 000:856.106 - 1.016ms returns FALSE
T7550 000:856.178 JLINK_HasError()
T7550 000:857.916 JLINK_IsHalted()
T7550 000:858.938 - 1.022ms returns FALSE
T7550 000:859.002 JLINK_HasError()
T7550 000:861.048 JLINK_IsHalted()
T7550 000:861.947 - 0.898ms returns FALSE
T7550 000:862.014 JLINK_HasError()
T7550 000:864.042 JLINK_IsHalted()
T7550 000:864.818 - 0.775ms returns FALSE
T7550 000:864.876 JLINK_HasError()
T7550 000:866.788 JLINK_IsHalted()
T7550 000:867.605 - 0.816ms returns FALSE
T7550 000:867.663 JLINK_HasError()
T7550 000:868.819 JLINK_IsHalted()
T7550 000:869.895 - 1.076ms returns FALSE
T7550 000:869.952 JLINK_HasError()
T7550 000:871.810 JLINK_IsHalted()
T7550 000:872.799 - 0.986ms returns FALSE
T7550 000:872.859 JLINK_HasError()
T7550 000:874.802 JLINK_IsHalted()
T7550 000:875.696 - 0.893ms returns FALSE
T7550 000:875.756 JLINK_HasError()
T7550 000:877.789 JLINK_IsHalted()
T7550 000:879.040 - 1.251ms returns FALSE
T7550 000:879.098 JLINK_HasError()
T7550 000:881.007 JLINK_IsHalted()
T7550 000:881.809 - 0.801ms returns FALSE
T7550 000:881.875 JLINK_HasError()
T7550 000:883.845 JLINK_IsHalted()
T7550 000:884.802 - 0.957ms returns FALSE
T7550 000:884.860 JLINK_HasError()
T7550 000:887.811 JLINK_IsHalted()
T7550 000:888.678 - 0.865ms returns FALSE
T7550 000:888.743 JLINK_HasError()
T7550 000:890.780 JLINK_IsHalted()
T7550 000:891.979 - 1.199ms returns FALSE
T7550 000:892.036 JLINK_HasError()
T7550 000:893.873 JLINK_IsHalted()
T7550 000:894.852 - 0.980ms returns FALSE
T7550 000:894.910 JLINK_HasError()
T7550 000:896.778 JLINK_IsHalted()
T7550 000:897.711 - 0.932ms returns FALSE
T7550 000:897.773 JLINK_HasError()
T7550 000:899.301 JLINK_IsHalted()
T7550 000:900.149 - 0.847ms returns FALSE
T7550 000:900.203 JLINK_HasError()
T7550 000:902.216 JLINK_IsHalted()
T7550 000:903.092 - 0.875ms returns FALSE
T7550 000:903.149 JLINK_HasError()
T7550 000:905.205 JLINK_IsHalted()
T7550 000:906.144 - 0.936ms returns FALSE
T7550 000:906.240 JLINK_HasError()
T7550 000:908.087 JLINK_IsHalted()
T7550 000:908.929 - 0.842ms returns FALSE
T7550 000:908.984 JLINK_HasError()
T7550 000:910.122 JLINK_IsHalted()
T7550 000:911.176 - 1.054ms returns FALSE
T7550 000:911.229 JLINK_HasError()
T7550 000:913.074 JLINK_IsHalted()
T7550 000:913.962 - 0.887ms returns FALSE
T7550 000:914.018 JLINK_HasError()
T7550 000:916.108 JLINK_IsHalted()
T7550 000:916.960 - 0.851ms returns FALSE
T7550 000:917.018 JLINK_HasError()
T7550 000:919.101 JLINK_IsHalted()
T7550 000:920.250 - 1.149ms returns FALSE
T7550 000:920.306 JLINK_HasError()
T7550 000:922.297 JLINK_IsHalted()
T7550 000:923.244 - 0.945ms returns FALSE
T7550 000:923.303 JLINK_HasError()
T7550 000:925.496 JLINK_IsHalted()
T7550 000:927.000 - 1.503ms returns FALSE
T7550 000:927.057 JLINK_HasError()
T7550 000:928.258 JLINK_IsHalted()
T7550 000:929.033 - 0.774ms returns FALSE
T7550 000:929.091 JLINK_HasError()
T7550 000:930.562 JLINK_IsHalted()
T7550 000:931.502 - 0.940ms returns FALSE
T7550 000:931.563 JLINK_HasError()
T7550 000:933.626 JLINK_IsHalted()
T7550 000:935.021 - 1.394ms returns FALSE
T7550 000:935.078 JLINK_HasError()
T7550 000:937.061 JLINK_IsHalted()
T7550 000:938.429 - 1.367ms returns FALSE
T7550 000:938.487 JLINK_HasError()
T7550 000:940.729 JLINK_IsHalted()
T7550 000:942.073 - 1.344ms returns FALSE
T7550 000:942.131 JLINK_HasError()
T7550 000:944.211 JLINK_IsHalted()
T7550 000:945.153 - 0.942ms returns FALSE
T7550 000:945.209 JLINK_HasError()
T7550 000:947.203 JLINK_IsHalted()
T7550 000:948.143 - 0.940ms returns FALSE
T7550 000:948.201 JLINK_HasError()
T7550 000:950.103 JLINK_IsHalted()
T7550 000:951.080 - 0.976ms returns FALSE
T7550 000:951.136 JLINK_HasError()
T7550 000:952.401 JLINK_IsHalted()
T7550 000:953.248 - 0.847ms returns FALSE
T7550 000:953.307 JLINK_HasError()
T7550 000:954.548 JLINK_IsHalted()
T7550 000:955.760 - 1.211ms returns FALSE
T7550 000:955.857 JLINK_HasError()
T7550 000:957.280 JLINK_IsHalted()
T7550 000:958.373 - 1.093ms returns FALSE
T7550 000:958.430 JLINK_HasError()
T7550 000:959.678 JLINK_IsHalted()
T7550 000:961.121 - 1.442ms returns FALSE
T7550 000:961.177 JLINK_HasError()
T7550 000:962.422 JLINK_IsHalted()
T7550 000:963.364 - 0.941ms returns FALSE
T7550 000:963.424 JLINK_HasError()
T7550 000:965.165 JLINK_IsHalted()
T7550 000:966.080 - 0.914ms returns FALSE
T7550 000:966.138 JLINK_HasError()
T7550 000:967.625 JLINK_IsHalted()
T7550 000:969.305 - 1.678ms returns FALSE
T7550 000:969.385 JLINK_HasError()
T7550 000:970.714 JLINK_IsHalted()
T7550 000:972.369 - 1.654ms returns FALSE
T7550 000:972.452 JLINK_HasError()
T7550 000:973.651 JLINK_IsHalted()
T7550 000:974.635 - 0.984ms returns FALSE
T7550 000:974.694 JLINK_HasError()
T7550 000:976.103 JLINK_IsHalted()
T7550 000:977.579 - 1.475ms returns FALSE
T7550 000:977.660 JLINK_HasError()
T7550 000:979.624 JLINK_IsHalted()
T7550 000:980.602 - 0.977ms returns FALSE
T7550 000:980.659 JLINK_HasError()
T7550 000:982.110 JLINK_IsHalted()
T7550 000:983.736 - 1.625ms returns FALSE
T7550 000:983.817 JLINK_HasError()
T7550 000:985.693 JLINK_IsHalted()
T7550 000:987.175 - 1.481ms returns FALSE
T7550 000:987.256 JLINK_HasError()
T7550 000:988.517 JLINK_IsHalted()
T7550 000:989.522 - 1.004ms returns FALSE
T7550 000:989.599 JLINK_HasError()
T7550 000:991.547 JLINK_IsHalted()
T7550 000:992.986 - 1.438ms returns FALSE
T7550 000:993.069 JLINK_HasError()
T7550 000:997.324 JLINK_IsHalted()
T7550 000:998.198 - 0.874ms returns FALSE
T7550 000:998.254 JLINK_HasError()
T7550 000:999.737 JLINK_IsHalted()
T7550 001:001.104 - 1.366ms returns FALSE
T7550 001:001.188 JLINK_HasError()
T7550 001:003.247 JLINK_IsHalted()
T7550 001:004.129 - 0.881ms returns FALSE
T7550 001:004.188 JLINK_HasError()
T7550 001:006.570 JLINK_IsHalted()
T7550 001:007.322 - 0.752ms returns FALSE
T7550 001:007.379 JLINK_HasError()
T7550 001:009.189 JLINK_IsHalted()
T7550 001:010.126 - 0.937ms returns FALSE
T7550 001:010.189 JLINK_HasError()
T7550 001:012.179 JLINK_IsHalted()
T7550 001:013.311 - 1.131ms returns FALSE
T7550 001:013.367 JLINK_HasError()
T7550 001:014.482 JLINK_IsHalted()
T7550 001:015.943 - 1.459ms returns FALSE
T7550 001:015.999 JLINK_HasError()
T7550 001:017.559 JLINK_IsHalted()
T7550 001:018.826 - 1.266ms returns FALSE
T7550 001:018.884 JLINK_HasError()
T7550 001:020.158 JLINK_IsHalted()
T7550 001:021.476 - 1.317ms returns FALSE
T7550 001:021.534 JLINK_HasError()
T7550 001:022.893 JLINK_IsHalted()
T7550 001:023.806 - 0.912ms returns FALSE
T7550 001:023.866 JLINK_HasError()
T7550 001:025.805 JLINK_IsHalted()
T7550 001:029.769   CPU_ReadMem(2 bytes @ 0x20000000)
T7550 001:030.699 - 4.893ms returns TRUE
T7550 001:030.757 JLINK_ReadReg(R15 (PC))
T7550 001:030.803 - 0.046ms returns 0x20000000
T7550 001:030.849 JLINK_ClrBPEx(BPHandle = 0x00000003)
T7550 001:030.894 - 0.044ms returns 0x00
T7550 001:030.940 JLINK_ReadReg(R0)
T7550 001:030.984 - 0.044ms returns 0x00000000
T7550 001:031.505 JLINK_HasError()
T7550 001:031.559 JLINK_WriteReg(R0, 0x00000001)
T7550 001:031.605 - 0.046ms returns 0
T7550 001:031.650 JLINK_WriteReg(R1, 0x00004000)
T7550 001:031.694 - 0.043ms returns 0
T7550 001:031.738 JLINK_WriteReg(R2, 0x000000FF)
T7550 001:031.781 - 0.043ms returns 0
T7550 001:031.826 JLINK_WriteReg(R3, 0x00000000)
T7550 001:031.869 - 0.043ms returns 0
T7550 001:031.913 JLINK_WriteReg(R4, 0x00000000)
T7550 001:031.956 - 0.042ms returns 0
T7550 001:032.000 JLINK_WriteReg(R5, 0x00000000)
T7550 001:032.043 - 0.043ms returns 0
T7550 001:032.087 JLINK_WriteReg(R6, 0x00000000)
T7550 001:032.130 - 0.042ms returns 0
T7550 001:032.174 JLINK_WriteReg(R7, 0x00000000)
T7550 001:032.217 - 0.043ms returns 0
T7550 001:032.261 JLINK_WriteReg(R8, 0x00000000)
T7550 001:032.304 - 0.043ms returns 0
T7550 001:032.349 JLINK_WriteReg(R9, 0x20000180)
T7550 001:032.392 - 0.043ms returns 0
T7550 001:032.436 JLINK_WriteReg(R10, 0x00000000)
T7550 001:032.479 - 0.043ms returns 0
T7550 001:032.523 JLINK_WriteReg(R11, 0x00000000)
T7550 001:032.566 - 0.043ms returns 0
T7550 001:032.611 JLINK_WriteReg(R12, 0x00000000)
T7550 001:032.653 - 0.043ms returns 0
T7550 001:032.698 JLINK_WriteReg(R13 (SP), 0x20001000)
T7550 001:032.742 - 0.043ms returns 0
T7550 001:032.802 JLINK_WriteReg(R14, 0x20000001)
T7550 001:032.850 - 0.048ms returns 0
T7550 001:032.897 JLINK_WriteReg(R15 (PC), 0x20000086)
T7550 001:032.941 - 0.044ms returns 0
T7550 001:032.988 JLINK_WriteReg(XPSR, 0x01000000)
T7550 001:033.030 - 0.043ms returns 0
T7550 001:033.075 JLINK_WriteReg(MSP, 0x20001000)
T7550 001:033.118 - 0.043ms returns 0
T7550 001:033.162 JLINK_WriteReg(PSP, 0x20001000)
T7550 001:033.205 - 0.042ms returns 0
T7550 001:033.249 JLINK_WriteReg(CFBP, 0x00000000)
T7550 001:033.292 - 0.043ms returns 0
T7550 001:033.337 JLINK_SetBPEx(Addr = 0x20000000, Type = 0xFFFFFFF2)
T7550 001:033.381 - 0.044ms returns 0x00000004
T7550 001:033.426 JLINK_Go()
T7550 001:033.477   CPU_ReadMem(4 bytes @ 0xE0001000)
T7550 001:039.266 - 5.838ms
T7550 001:039.345 JLINK_IsHalted()
T7550 001:043.420   CPU_ReadMem(2 bytes @ 0x20000000)
T7550 001:044.385 - 5.039ms returns TRUE
T7550 001:044.498 JLINK_ReadReg(R15 (PC))
T7550 001:044.551 - 0.052ms returns 0x20000000
T7550 001:044.599 JLINK_ClrBPEx(BPHandle = 0x00000004)
T7550 001:044.646 - 0.046ms returns 0x00
T7550 001:044.693 JLINK_ReadReg(R0)
T7550 001:044.739 - 0.045ms returns 0x00000000
T7550 001:109.174 JLINK_WriteMem(0x20000000, 0x184 Bytes, ...)
T7550 001:109.230   Data:  00 BE 0A E0 0D 78 2D 06 68 40 08 24 40 00 00 D3 ...
T7550 001:109.306   CPU_WriteMem(388 bytes @ 0x20000000)
T7550 001:114.875 - 5.701ms returns 0x184
T7550 001:114.992 JLINK_HasError()
T7550 001:115.042 JLINK_WriteReg(R0, 0x08000000)
T7550 001:115.090 - 0.048ms returns 0
T7550 001:115.136 JLINK_WriteReg(R1, 0x00B71B00)
T7550 001:115.180 - 0.044ms returns 0
T7550 001:115.226 JLINK_WriteReg(R2, 0x00000002)
T7550 001:115.270 - 0.044ms returns 0
T7550 001:115.315 JLINK_WriteReg(R3, 0x00000000)
T7550 001:115.359 - 0.044ms returns 0
T7550 001:115.405 JLINK_WriteReg(R4, 0x00000000)
T7550 001:115.449 - 0.044ms returns 0
T7550 001:115.494 JLINK_WriteReg(R5, 0x00000000)
T7550 001:115.538 - 0.044ms returns 0
T7550 001:115.583 JLINK_WriteReg(R6, 0x00000000)
T7550 001:115.627 - 0.043ms returns 0
T7550 001:115.672 JLINK_WriteReg(R7, 0x00000000)
T7550 001:115.716 - 0.044ms returns 0
T7550 001:115.762 JLINK_WriteReg(R8, 0x00000000)
T7550 001:115.806 - 0.044ms returns 0
T7550 001:115.851 JLINK_WriteReg(R9, 0x20000180)
T7550 001:115.895 - 0.043ms returns 0
T7550 001:115.940 JLINK_WriteReg(R10, 0x00000000)
T7550 001:115.984 - 0.043ms returns 0
T7550 001:116.029 JLINK_WriteReg(R11, 0x00000000)
T7550 001:116.073 - 0.044ms returns 0
T7550 001:116.118 JLINK_WriteReg(R12, 0x00000000)
T7550 001:116.162 - 0.043ms returns 0
T7550 001:116.207 JLINK_WriteReg(R13 (SP), 0x20001000)
T7550 001:116.252 - 0.044ms returns 0
T7550 001:116.297 JLINK_WriteReg(R14, 0x20000001)
T7550 001:116.341 - 0.044ms returns 0
T7550 001:116.387 JLINK_WriteReg(R15 (PC), 0x20000054)
T7550 001:116.431 - 0.044ms returns 0
T7550 001:116.476 JLINK_WriteReg(XPSR, 0x01000000)
T7550 001:116.523 - 0.047ms returns 0
T7550 001:116.568 JLINK_WriteReg(MSP, 0x20001000)
T7550 001:116.613 - 0.044ms returns 0
T7550 001:116.658 JLINK_WriteReg(PSP, 0x20001000)
T7550 001:116.702 - 0.043ms returns 0
T7550 001:116.747 JLINK_WriteReg(CFBP, 0x00000000)
T7550 001:116.791 - 0.044ms returns 0
T7550 001:116.837 JLINK_SetBPEx(Addr = 0x20000000, Type = 0xFFFFFFF2)
T7550 001:116.886   CPU_ReadMem(2 bytes @ 0x20000000)
T7550 001:117.874 - 1.037ms returns 0x00000005
T7550 001:117.938 JLINK_Go()
T7550 001:117.986   CPU_WriteMem(2 bytes @ 0x20000000)
T7550 001:119.567   CPU_ReadMem(4 bytes @ 0xE0001000)
T7550 001:125.383 - 7.444ms
T7550 001:125.465 JLINK_IsHalted()
T7550 001:130.264   CPU_ReadMem(2 bytes @ 0x20000000)
T7550 001:131.168 - 5.703ms returns TRUE
T7550 001:131.238 JLINK_ReadReg(R15 (PC))
T7550 001:131.286 - 0.048ms returns 0x20000000
T7550 001:131.333 JLINK_ClrBPEx(BPHandle = 0x00000005)
T7550 001:131.377 - 0.044ms returns 0x00
T7550 001:131.426 JLINK_ReadReg(R0)
T7550 001:131.471 - 0.044ms returns 0x00000000
T7550 001:132.006 JLINK_WriteMem(0x20000184, 0x27C Bytes, ...)
T7550 001:132.059   Data:  70 8E 00 20 61 02 00 08 A1 05 00 08 99 05 00 08 ...
T7550 001:132.132   CPU_WriteMem(636 bytes @ 0x20000184)
T7550 001:140.700 - 8.693ms returns 0x27C
T7550 001:140.770 JLINK_WriteMem(0x20000400, 0x184 Bytes, ...)
T7550 001:140.815   Data:  1D 09 00 08 89 01 00 08 40 EA 01 03 9B 07 03 D0 ...
T7550 001:140.891   CPU_WriteMem(388 bytes @ 0x20000400)
T7550 001:146.728 - 5.956ms returns 0x184
T7550 001:146.808 JLINK_HasError()
T7550 001:146.870 JLINK_WriteReg(R0, 0x08000000)
T7550 001:146.919 - 0.049ms returns 0
T7550 001:146.965 JLINK_WriteReg(R1, 0x00000400)
T7550 001:147.011 - 0.046ms returns 0
T7550 001:147.056 JLINK_WriteReg(R2, 0x20000184)
T7550 001:147.099 - 0.043ms returns 0
T7550 001:147.144 JLINK_WriteReg(R3, 0x00000000)
T7550 001:147.187 - 0.043ms returns 0
T7550 001:147.231 JLINK_WriteReg(R4, 0x00000000)
T7550 001:147.274 - 0.043ms returns 0
T7550 001:147.319 JLINK_WriteReg(R5, 0x00000000)
T7550 001:147.366 - 0.047ms returns 0
T7550 001:147.411 JLINK_WriteReg(R6, 0x00000000)
T7550 001:147.453 - 0.042ms returns 0
T7550 001:147.498 JLINK_WriteReg(R7, 0x00000000)
T7550 001:147.541 - 0.042ms returns 0
T7550 001:147.585 JLINK_WriteReg(R8, 0x00000000)
T7550 001:147.628 - 0.043ms returns 0
T7550 001:147.672 JLINK_WriteReg(R9, 0x20000180)
T7550 001:147.715 - 0.042ms returns 0
T7550 001:147.759 JLINK_WriteReg(R10, 0x00000000)
T7550 001:147.802 - 0.043ms returns 0
T7550 001:147.847 JLINK_WriteReg(R11, 0x00000000)
T7550 001:147.890 - 0.043ms returns 0
T7550 001:147.934 JLINK_WriteReg(R12, 0x00000000)
T7550 001:147.977 - 0.042ms returns 0
T7550 001:148.021 JLINK_WriteReg(R13 (SP), 0x20001000)
T7550 001:148.064 - 0.043ms returns 0
T7550 001:148.109 JLINK_WriteReg(R14, 0x20000001)
T7550 001:148.152 - 0.043ms returns 0
T7550 001:148.196 JLINK_WriteReg(R15 (PC), 0x2000010C)
T7550 001:148.239 - 0.043ms returns 0
T7550 001:148.286 JLINK_WriteReg(XPSR, 0x01000000)
T7550 001:148.330 - 0.045ms returns 0
T7550 001:148.375 JLINK_WriteReg(MSP, 0x20001000)
T7550 001:148.418 - 0.043ms returns 0
T7550 001:148.462 JLINK_WriteReg(PSP, 0x20001000)
T7550 001:148.505 - 0.043ms returns 0
T7550 001:148.550 JLINK_WriteReg(CFBP, 0x00000000)
T7550 001:148.593 - 0.043ms returns 0
T7550 001:148.638 JLINK_SetBPEx(Addr = 0x20000000, Type = 0xFFFFFFF2)
T7550 001:148.682 - 0.045ms returns 0x00000006
T7550 001:148.727 JLINK_Go()
T7550 001:148.779   CPU_ReadMem(4 bytes @ 0xE0001000)
T7550 001:155.060 - 6.332ms
T7550 001:155.142 JLINK_IsHalted()
T7550 001:156.872 - 1.729ms returns FALSE
T7550 001:156.956 JLINK_HasError()
T7550 001:166.273 JLINK_IsHalted()
T7550 001:171.414   CPU_ReadMem(2 bytes @ 0x20000000)
T7550 001:172.502 - 6.228ms returns TRUE
T7550 001:172.579 JLINK_ReadReg(R15 (PC))
T7550 001:172.627 - 0.048ms returns 0x20000000
T7550 001:172.673 JLINK_ClrBPEx(BPHandle = 0x00000006)
T7550 001:172.718 - 0.044ms returns 0x00
T7550 001:172.764 JLINK_ReadReg(R0)
T7550 001:172.808 - 0.044ms returns 0x00000000
T7550 001:173.480 JLINK_WriteMem(0x20000184, 0x27C Bytes, ...)
T7550 001:173.532   Data:  10 64 02 40 00 60 02 40 3C 0F 3C 0F 7D 0F 7D 0F ...
T7550 001:173.606   CPU_WriteMem(636 bytes @ 0x20000184)
T7550 001:181.762 - 8.281ms returns 0x27C
T7550 001:181.840 JLINK_WriteMem(0x20000400, 0x184 Bytes, ...)
T7550 001:181.886   Data:  02 23 32 4F 3F 68 07 F0 0C 01 21 B1 04 29 05 D0 ...
T7550 001:181.960   CPU_WriteMem(388 bytes @ 0x20000400)
T7550 001:188.234 - 6.392ms returns 0x184
T7550 001:188.318 JLINK_HasError()
T7550 001:188.455 JLINK_WriteReg(R0, 0x08000400)
T7550 001:188.514 - 0.059ms returns 0
T7550 001:188.562 JLINK_WriteReg(R1, 0x00000400)
T7550 001:188.606 - 0.044ms returns 0
T7550 001:188.652 JLINK_WriteReg(R2, 0x20000184)
T7550 001:188.696 - 0.044ms returns 0
T7550 001:188.742 JLINK_WriteReg(R3, 0x00000000)
T7550 001:188.788 - 0.045ms returns 0
T7550 001:188.836 JLINK_WriteReg(R4, 0x00000000)
T7550 001:188.883 - 0.047ms returns 0
T7550 001:188.930 JLINK_WriteReg(R5, 0x00000000)
T7550 001:188.974 - 0.044ms returns 0
T7550 001:189.019 JLINK_WriteReg(R6, 0x00000000)
T7550 001:189.062 - 0.043ms returns 0
T7550 001:189.106 JLINK_WriteReg(R7, 0x00000000)
T7550 001:189.149 - 0.043ms returns 0
T7550 001:189.205 JLINK_WriteReg(R8, 0x00000000)
T7550 001:189.269 - 0.064ms returns 0
T7550 001:189.334 JLINK_WriteReg(R9, 0x20000180)
T7550 001:189.397 - 0.062ms returns 0
T7550 001:189.456 JLINK_WriteReg(R10, 0x00000000)
T7550 001:189.502 - 0.046ms returns 0
T7550 001:189.548 JLINK_WriteReg(R11, 0x00000000)
T7550 001:189.593 - 0.044ms returns 0
T7550 001:189.639 JLINK_WriteReg(R12, 0x00000000)
T7550 001:189.683 - 0.044ms returns 0
T7550 001:189.730 JLINK_WriteReg(R13 (SP), 0x20001000)
T7550 001:189.775 - 0.045ms returns 0
T7550 001:189.821 JLINK_WriteReg(R14, 0x20000001)
T7550 001:189.865 - 0.044ms returns 0
T7550 001:189.911 JLINK_WriteReg(R15 (PC), 0x2000010C)
T7550 001:189.956 - 0.044ms returns 0
T7550 001:190.002 JLINK_WriteReg(XPSR, 0x01000000)
T7550 001:190.049 - 0.047ms returns 0
T7550 001:190.098 JLINK_WriteReg(MSP, 0x20001000)
T7550 001:190.150 - 0.051ms returns 0
T7550 001:190.211 JLINK_WriteReg(PSP, 0x20001000)
T7550 001:190.269 - 0.057ms returns 0
T7550 001:190.331 JLINK_WriteReg(CFBP, 0x00000000)
T7550 001:190.390 - 0.059ms returns 0
T7550 001:190.451 JLINK_SetBPEx(Addr = 0x20000000, Type = 0xFFFFFFF2)
T7550 001:190.515 - 0.063ms returns 0x00000007
T7550 001:190.575 JLINK_Go()
T7550 001:190.643   CPU_ReadMem(4 bytes @ 0xE0001000)
T7550 001:195.979 - 5.403ms
T7550 001:196.061 JLINK_IsHalted()
T7550 001:197.663 - 1.601ms returns FALSE
T7550 001:197.743 JLINK_HasError()
T7550 001:199.182 JLINK_IsHalted()
T7550 001:200.504 - 1.321ms returns FALSE
T7550 001:200.589 JLINK_HasError()
T7550 001:202.676 JLINK_IsHalted()
T7550 001:206.603   CPU_ReadMem(2 bytes @ 0x20000000)
T7550 001:208.078 - 5.401ms returns TRUE
T7550 001:208.159 JLINK_ReadReg(R15 (PC))
T7550 001:208.208 - 0.048ms returns 0x20000000
T7550 001:208.254 JLINK_ClrBPEx(BPHandle = 0x00000007)
T7550 001:208.299 - 0.044ms returns 0x00
T7550 001:208.344 JLINK_ReadReg(R0)
T7550 001:208.388 - 0.043ms returns 0x00000000
T7550 001:209.090 JLINK_WriteMem(0x20000184, 0x27C Bytes, ...)
T7550 001:209.150   Data:  B0 F5 A0 4F F1 D1 2A 48 00 68 00 F4 00 30 10 B1 ...
T7550 001:209.226   CPU_WriteMem(636 bytes @ 0x20000184)
T7550 001:218.384 - 9.293ms returns 0x27C
T7550 001:218.469 JLINK_WriteMem(0x20000400, 0x184 Bytes, ...)
T7550 001:218.515   Data:  04 43 2C 81 BD E8 FF 87 00 10 01 40 00 14 01 40 ...
T7550 001:218.590   CPU_WriteMem(388 bytes @ 0x20000400)
T7550 001:224.602 - 6.131ms returns 0x184
T7550 001:224.683 JLINK_HasError()
T7550 001:224.731 JLINK_WriteReg(R0, 0x08000800)
T7550 001:224.779 - 0.047ms returns 0
T7550 001:224.826 JLINK_WriteReg(R1, 0x00000400)
T7550 001:224.871 - 0.044ms returns 0
T7550 001:224.918 JLINK_WriteReg(R2, 0x20000184)
T7550 001:224.962 - 0.044ms returns 0
T7550 001:225.013 JLINK_WriteReg(R3, 0x00000000)
T7550 001:225.059 - 0.045ms returns 0
T7550 001:225.105 JLINK_WriteReg(R4, 0x00000000)
T7550 001:225.149 - 0.044ms returns 0
T7550 001:225.196 JLINK_WriteReg(R5, 0x00000000)
T7550 001:225.240 - 0.043ms returns 0
T7550 001:225.286 JLINK_WriteReg(R6, 0x00000000)
T7550 001:225.330 - 0.044ms returns 0
T7550 001:225.376 JLINK_WriteReg(R7, 0x00000000)
T7550 001:225.420 - 0.044ms returns 0
T7550 001:225.467 JLINK_WriteReg(R8, 0x00000000)
T7550 001:225.511 - 0.044ms returns 0
T7550 001:225.557 JLINK_WriteReg(R9, 0x20000180)
T7550 001:225.601 - 0.044ms returns 0
T7550 001:225.647 JLINK_WriteReg(R10, 0x00000000)
T7550 001:225.691 - 0.044ms returns 0
T7550 001:225.738 JLINK_WriteReg(R11, 0x00000000)
T7550 001:225.782 - 0.044ms returns 0
T7550 001:225.828 JLINK_WriteReg(R12, 0x00000000)
T7550 001:225.872 - 0.043ms returns 0
T7550 001:225.919 JLINK_WriteReg(R13 (SP), 0x20001000)
T7550 001:225.963 - 0.044ms returns 0
T7550 001:226.011 JLINK_WriteReg(R14, 0x20000001)
T7550 001:226.056 - 0.044ms returns 0
T7550 001:226.102 JLINK_WriteReg(R15 (PC), 0x2000010C)
T7550 001:226.146 - 0.044ms returns 0
T7550 001:226.193 JLINK_WriteReg(XPSR, 0x01000000)
T7550 001:226.237 - 0.044ms returns 0
T7550 001:226.284 JLINK_WriteReg(MSP, 0x20001000)
T7550 001:226.327 - 0.043ms returns 0
T7550 001:226.374 JLINK_WriteReg(PSP, 0x20001000)
T7550 001:226.418 - 0.043ms returns 0
T7550 001:226.464 JLINK_WriteReg(CFBP, 0x00000000)
T7550 001:226.508 - 0.044ms returns 0
T7550 001:226.556 JLINK_SetBPEx(Addr = 0x20000000, Type = 0xFFFFFFF2)
T7550 001:226.601 - 0.045ms returns 0x00000008
T7550 001:226.648 JLINK_Go()
T7550 001:226.701   CPU_ReadMem(4 bytes @ 0xE0001000)
T7550 001:232.365 - 5.716ms
T7550 001:232.454 JLINK_IsHalted()
T7550 001:233.353 - 0.897ms returns FALSE
T7550 001:233.434 JLINK_HasError()
T7550 001:236.362 JLINK_IsHalted()
T7550 001:240.679   CPU_ReadMem(2 bytes @ 0x20000000)
T7550 001:242.426 - 6.062ms returns TRUE
T7550 001:242.505 JLINK_ReadReg(R15 (PC))
T7550 001:242.553 - 0.047ms returns 0x20000000
T7550 001:242.602 JLINK_ClrBPEx(BPHandle = 0x00000008)
T7550 001:242.650 - 0.047ms returns 0x00
T7550 001:242.695 JLINK_ReadReg(R0)
T7550 001:242.739 - 0.044ms returns 0x00000000
T7550 001:243.442 JLINK_WriteMem(0x20000184, 0x27C Bytes, ...)
T7550 001:243.502   Data:  6D 1C B8 F1 00 01 A8 F1 01 08 F5 DC 05 E0 16 F8 ...
T7550 001:243.575   CPU_WriteMem(636 bytes @ 0x20000184)
T7550 001:252.370 - 8.927ms returns 0x27C
T7550 001:252.447 JLINK_WriteMem(0x20000400, 0x184 Bytes, ...)
T7550 001:252.492   Data:  8D F8 01 00 00 20 8D F8 02 00 68 46 FF F7 8C FB ...
T7550 001:252.565   CPU_WriteMem(388 bytes @ 0x20000400)
T7550 001:258.567 - 6.119ms returns 0x184
T7550 001:258.651 JLINK_HasError()
T7550 001:258.787 JLINK_WriteReg(R0, 0x08000C00)
T7550 001:258.845 - 0.059ms returns 0
T7550 001:258.893 JLINK_WriteReg(R1, 0x00000400)
T7550 001:258.937 - 0.044ms returns 0
T7550 001:258.982 JLINK_WriteReg(R2, 0x20000184)
T7550 001:259.026 - 0.043ms returns 0
T7550 001:259.071 JLINK_WriteReg(R3, 0x00000000)
T7550 001:259.115 - 0.044ms returns 0
T7550 001:259.160 JLINK_WriteReg(R4, 0x00000000)
T7550 001:259.203 - 0.043ms returns 0
T7550 001:259.247 JLINK_WriteReg(R5, 0x00000000)
T7550 001:259.290 - 0.043ms returns 0
T7550 001:259.334 JLINK_WriteReg(R6, 0x00000000)
T7550 001:259.377 - 0.043ms returns 0
T7550 001:259.422 JLINK_WriteReg(R7, 0x00000000)
T7550 001:259.464 - 0.043ms returns 0
T7550 001:259.509 JLINK_WriteReg(R8, 0x00000000)
T7550 001:259.555 - 0.045ms returns 0
T7550 001:259.599 JLINK_WriteReg(R9, 0x20000180)
T7550 001:259.642 - 0.043ms returns 0
T7550 001:259.687 JLINK_WriteReg(R10, 0x00000000)
T7550 001:259.729 - 0.043ms returns 0
T7550 001:259.774 JLINK_WriteReg(R11, 0x00000000)
T7550 001:259.817 - 0.043ms returns 0
T7550 001:259.861 JLINK_WriteReg(R12, 0x00000000)
T7550 001:259.904 - 0.043ms returns 0
T7550 001:259.948 JLINK_WriteReg(R13 (SP), 0x20001000)
T7550 001:259.992 - 0.043ms returns 0
T7550 001:260.036 JLINK_WriteReg(R14, 0x20000001)
T7550 001:260.079 - 0.043ms returns 0
T7550 001:260.123 JLINK_WriteReg(R15 (PC), 0x2000010C)
T7550 001:260.166 - 0.043ms returns 0
T7550 001:260.211 JLINK_WriteReg(XPSR, 0x01000000)
T7550 001:260.254 - 0.043ms returns 0
T7550 001:260.298 JLINK_WriteReg(MSP, 0x20001000)
T7550 001:260.341 - 0.043ms returns 0
T7550 001:260.385 JLINK_WriteReg(PSP, 0x20001000)
T7550 001:260.428 - 0.043ms returns 0
T7550 001:260.472 JLINK_WriteReg(CFBP, 0x00000000)
T7550 001:260.515 - 0.043ms returns 0
T7550 001:260.562 JLINK_SetBPEx(Addr = 0x20000000, Type = 0xFFFFFFF2)
T7550 001:260.607 - 0.045ms returns 0x00000009
T7550 001:260.651 JLINK_Go()
T7550 001:260.703   CPU_ReadMem(4 bytes @ 0xE0001000)
T7550 001:266.360 - 5.707ms
T7550 001:266.434 JLINK_IsHalted()
T7550 001:267.358 - 0.922ms returns FALSE
T7550 001:267.413 JLINK_HasError()
T7550 001:269.327 JLINK_IsHalted()
T7550 001:271.119 - 1.791ms returns FALSE
T7550 001:271.175 JLINK_HasError()
T7550 001:272.338 JLINK_IsHalted()
T7550 001:278.384   CPU_ReadMem(2 bytes @ 0x20000000)
T7550 001:279.923 - 7.584ms returns TRUE
T7550 001:280.012 JLINK_ReadReg(R15 (PC))
T7550 001:280.064 - 0.052ms returns 0x20000000
T7550 001:280.114 JLINK_ClrBPEx(BPHandle = 0x00000009)
T7550 001:280.160 - 0.045ms returns 0x00
T7550 001:280.205 JLINK_ReadReg(R0)
T7550 001:280.248 - 0.043ms returns 0x00000000
T7550 001:281.037 JLINK_WriteMem(0x20000184, 0x27C Bytes, ...)
T7550 001:281.096   Data:  0D 0A 00 00 C4 E3 BA C3 0D 0A 00 00 2D E9 F0 41 ...
T7550 001:281.169   CPU_WriteMem(636 bytes @ 0x20000184)
T7550 001:289.502 - 8.464ms returns 0x27C
T7550 001:289.584 JLINK_WriteMem(0x20000400, 0x184 Bytes, ...)
T7550 001:289.630   Data:  39 46 22 6C E0 68 FE F7 FF FF 21 6C E0 68 41 1A ...
T7550 001:289.704   CPU_WriteMem(388 bytes @ 0x20000400)
T7550 001:295.552 - 5.966ms returns 0x184
T7550 001:295.679 JLINK_HasError()
T7550 001:295.758 JLINK_WriteReg(R0, 0x08001000)
T7550 001:295.817 - 0.059ms returns 0
T7550 001:295.868 JLINK_WriteReg(R1, 0x00000400)
T7550 001:295.917 - 0.048ms returns 0
T7550 001:295.967 JLINK_WriteReg(R2, 0x20000184)
T7550 001:296.019 - 0.052ms returns 0
T7550 001:296.068 JLINK_WriteReg(R3, 0x00000000)
T7550 001:296.113 - 0.045ms returns 0
T7550 001:296.163 JLINK_WriteReg(R4, 0x00000000)
T7550 001:296.210 - 0.046ms returns 0
T7550 001:296.259 JLINK_WriteReg(R5, 0x00000000)
T7550 001:296.302 - 0.043ms returns 0
T7550 001:296.348 JLINK_WriteReg(R6, 0x00000000)
T7550 001:296.391 - 0.043ms returns 0
T7550 001:296.436 JLINK_WriteReg(R7, 0x00000000)
T7550 001:296.479 - 0.043ms returns 0
T7550 001:296.524 JLINK_WriteReg(R8, 0x00000000)
T7550 001:296.567 - 0.043ms returns 0
T7550 001:296.613 JLINK_WriteReg(R9, 0x20000180)
T7550 001:296.656 - 0.043ms returns 0
T7550 001:296.701 JLINK_WriteReg(R10, 0x00000000)
T7550 001:296.744 - 0.043ms returns 0
T7550 001:296.790 JLINK_WriteReg(R11, 0x00000000)
T7550 001:296.833 - 0.043ms returns 0
T7550 001:296.878 JLINK_WriteReg(R12, 0x00000000)
T7550 001:296.921 - 0.043ms returns 0
T7550 001:296.967 JLINK_WriteReg(R13 (SP), 0x20001000)
T7550 001:297.010 - 0.043ms returns 0
T7550 001:297.056 JLINK_WriteReg(R14, 0x20000001)
T7550 001:297.099 - 0.043ms returns 0
T7550 001:297.145 JLINK_WriteReg(R15 (PC), 0x2000010C)
T7550 001:297.188 - 0.043ms returns 0
T7550 001:297.233 JLINK_WriteReg(XPSR, 0x01000000)
T7550 001:297.276 - 0.043ms returns 0
T7550 001:297.322 JLINK_WriteReg(MSP, 0x20001000)
T7550 001:297.365 - 0.043ms returns 0
T7550 001:297.411 JLINK_WriteReg(PSP, 0x20001000)
T7550 001:297.454 - 0.043ms returns 0
T7550 001:297.499 JLINK_WriteReg(CFBP, 0x00000000)
T7550 001:297.543 - 0.043ms returns 0
T7550 001:297.589 JLINK_SetBPEx(Addr = 0x20000000, Type = 0xFFFFFFF2)
T7550 001:297.634 - 0.045ms returns 0x0000000A
T7550 001:297.680 JLINK_Go()
T7550 001:297.733   CPU_ReadMem(4 bytes @ 0xE0001000)
T7550 001:303.378 - 5.696ms
T7550 001:303.461 JLINK_IsHalted()
T7550 001:304.532 - 1.069ms returns FALSE
